
T1EA4 000:000 SEGGER J-Link V4.96a Log File (0001ms, 0001ms total)
T1EA4 000:000 DLL Compiled: Jan 14 2015 09:32:38 (0001ms, 0001ms total)
T1EA4 000:000 Logging started @ 2019-08-29 13:01 (0001ms, 0001ms total)
T1EA4 000:001 JLINK_SetWarnOutHandler(...) (0000ms, 0001ms total)
T1EA4 000:001 JLINK_OpenEx(...)
Firmware: J-Link OB-STM32F072-CortexM compiled Mar  8 2020 11:15:54
Hardware: V1.00
Feature(s): GDB, RDI, FlashBP, FlashDL, JFlash, RDDI  returns O.K. (0265ms, 0266ms total)
T1EA4 000:266 JLINK_GetEmuCaps()  returns 0xB8EA5A33 (0000ms, 0266ms total)
T1EA4 000:266 JLINK_TIF_GetAvailable(...) (0000ms, 0266ms total)
T1EA4 000:266 JLINK_SetErrorOutHandler(...) (0000ms, 0266ms total)
T1EA4 000:266 JLINK_ExecCommand("ProjectFile = "C:\Users\PC\Desktop\Balsys_Code\USER\JLinkSettings.ini"", ...)  returns 0x00 (0002ms, 0268ms total)
T1EA4 000:271 JLINK_ExecCommand("Device = STM32F103CB", ...)Device "STM32F103CB" selected.  returns 0x00 (0011ms, 0279ms total)
T1EA4 000:282 JLINK_ExecCommand("DisableConnectionTimeout", ...)  returns 0x01 (0000ms, 0279ms total)
T1EA4 000:282 JLINK_GetHardwareVersion()  returns 0x2710 (0000ms, 0279ms total)
T1EA4 000:282 JLINK_GetDLLVersion()  returns 49601 (0000ms, 0279ms total)
T1EA4 000:282 JLINK_GetFirmwareString(...) (0000ms, 0279ms total)
T1EA4 000:296 JLINK_GetDLLVersion()  returns 49601 (0000ms, 0279ms total)
T1EA4 000:296 JLINK_GetCompileDateTime() (0000ms, 0279ms total)
T1EA4 000:301 JLINK_GetFirmwareString(...) (0000ms, 0279ms total)
T1EA4 000:303 JLINK_GetHardwareVersion()  returns 0x2710 (0000ms, 0279ms total)
T1EA4 000:312 JLINK_TIF_Select(JLINKARM_TIF_SWD)  returns 0x00 (0001ms, 0280ms total)
T1EA4 000:313 JLINK_SetSpeed(5000) (0000ms, 0280ms total)
T1EA4 000:313 JLINK_GetId() >0x108 TIF>Found SWD-DP with ID 0x1BA01477 >0x0D TIF> >0x28 TIF> >0x0D TIF> >0x28 TIF> >0x0D TIF> >0x21 TIF> >0x0D TIF> >0x28 TIF> >0x0D TIF> >0x28 TIF> >0x0D TIF> >0x28 TIF> >0x0D TIF> >0x21 TIF> >0x0D TIF> >0x21 TIF> >0x0D TIF> >0x28 TIF> >0x0D TIF> >0x21 TIF> >0x0D TIF> >0x21 TIF> >0x108 TIF>Found SWD-DP with ID 0x1BA01477 >0x0D TIF> >0x21 TIF> >0x0D TIF> >0x28 TIF> >0x0D TIF> >0x28 TIF> >0x0D TIF> >0x21 TIF> >0x0D TIF> >0x28 TIF> >0x0D TIF> >0x21 TIF> >0x0D TIF> >0x21 TIF>
 >0x0D TIF> >0x21 TIF> >0x0D TIF> >0x21 TIF> >0x0D TIF> >0x28 TIF> >0x0D TIF> >0x28 TIF> >0x0D TIF> >0x21 TIF> >0x0D TIF> >0x28 TIF> >0x0D TIF> >0x28 TIF> >0x0D TIF> >0x28 TIF> >0x0D TIF> >0x21 TIF> >0x0D TIF> >0x21 TIF> >0x0D TIF> >0x28 TIF> >0x0D TIF> >0x21 TIF> >0x0D TIF> >0x21 TIF>Found Cortex-M3 r1p1, Little endian. -- CPU_WriteMem(4 bytes @ 0xE0002000) -- CPU_ReadMem(4 bytes @ 0xE000EDF0) -- CPU_ReadMem(4 bytes @ 0xE0002000)FPUnit: 6 code (BP) slots and 2 literal slots
 -- CPU_ReadMem(4 bytes @ 0xE000EDFC) -- CPU_ReadMem(4 bytes @ 0xE0001000) -- CPU_WriteMem(4 bytes @ 0xE0001000) -- CPU_ReadMem(4 bytes @ 0xE000ED88) -- CPU_WriteMem(4 bytes @ 0xE000ED88) -- CPU_ReadMem(4 bytes @ 0xE000ED88) -- CPU_WriteMem(4 bytes @ 0xE000ED88) -- CPU_ReadMem(4 bytes @ 0xE00FF010)TPIU fitted. -- CPU_ReadMem(4 bytes @ 0xE00FF014) -- CPU_ReadMem(4 bytes @ 0xE00FF018) >0x0D TIF> >0x21 TIF>  returns 0x1BA01477 (0042ms, 0322ms total)
T1EA4 000:355 JLINK_GetDLLVersion()  returns 49601 (0000ms, 0322ms total)
T1EA4 000:355 JLINK_CORE_GetFound()  returns 0x30000FF (0000ms, 0322ms total)
T1EA4 000:355 JLINK_GetDebugInfo(0x100) -- Value=0xE00FF003  returns 0x00 (0000ms, 0322ms total)
T1EA4 000:358 JLINK_GetDebugInfo(0x100) -- Value=0xE00FF003  returns 0x00 (0000ms, 0323ms total)
T1EA4 000:358 JLINK_GetDebugInfo(0x101)  returns 0xFFFFFFFF (0000ms, 0323ms total)
T1EA4 000:358 JLINK_ReadMemEx(0xE0041FF0, 0x0010 Bytes, ..., AccessWidth = 33554436) -- CPU is running -- CPU_ReadMem(16 bytes @ 0xE0041FF0) - Data: 00 00 00 00 00 00 00 00 00 00 00 00 00 00 00 00  returns 0x10 (0001ms, 0324ms total)
T1EA4 000:359 JLINK_GetDebugInfo(0x102)  returns 0xFFFFFFFF (0000ms, 0324ms total)
T1EA4 000:359 JLINK_GetDebugInfo(0x103)  returns 0xFFFFFFFF (0000ms, 0324ms total)
T1EA4 000:359 JLINK_ReadMemEx(0xE0040FF0, 0x0010 Bytes, ..., AccessWidth = 33554436) -- CPU is running -- CPU_ReadMem(16 bytes @ 0xE0040FF0) - Data: 0D 00 00 00 90 00 00 00 05 00 00 00 B1 00 00 00  returns 0x10 (0001ms, 0325ms total)
T1EA4 000:360 JLINK_GetDebugInfo(0x104)  returns 0xFFFFFFFF (0000ms, 0325ms total)
T1EA4 000:360 JLINK_GetDebugInfo(0x105)  returns 0xFFFFFFFF (0000ms, 0325ms total)
T1EA4 000:360 JLINK_GetDebugInfo(0x106)  returns 0xFFFFFFFF (0000ms, 0325ms total)
T1EA4 000:360 JLINK_GetDebugInfo(0x107)  returns 0xFFFFFFFF (0000ms, 0325ms total)
T1EA4 000:360 JLINK_GetDebugInfo(0x10C)  returns 0xFFFFFFFF (0000ms, 0325ms total)
T1EA4 000:360 JLINK_ReadMemU32(0xE000ED00, 0x0001 Items, ...) -- CPU is running -- CPU_ReadMem(4 bytes @ 0xE000ED00) - Data: 31 C2 1F 41  returns 0x01 (0001ms, 0326ms total)
T1EA4 000:361 JLINK_GetDebugInfo(0x10F)  returns 0xFFFFFFFF (0000ms, 0326ms total)
T1EA4 000:361 JLINK_SetResetType(JLINKARM_RESET_TYPE_NORMAL)  returns JLINKARM_RESET_TYPE_NORMAL (0000ms, 0326ms total)
T1EA4 000:361 JLINK_Reset() -- CPU is running -- CPU_WriteMem(4 bytes @ 0xE000EDF0) -- CPU is running -- CPU_WriteMem(4 bytes @ 0xE000EDFC) >0x35 TIF> -- CPU is running -- CPU_WriteMem(4 bytes @ 0xE000ED0C) -- CPU is running -- CPU_ReadMem(4 bytes @ 0xE000EDF0) -- CPU is running -- CPU_ReadMem(4 bytes @ 0xE000EDF0) -- CPU is running -- CPU_WriteMem(4 bytes @ 0xE000EDF0) -- CPU is running -- CPU_WriteMem(4 bytes @ 0xE000EDFC) -- CPU is running -- CPU_ReadMem(4 bytes @ 0xE000EDF0)
 -- CPU_WriteMem(4 bytes @ 0xE0002000) -- CPU_ReadMem(4 bytes @ 0xE000EDFC) -- CPU_ReadMem(4 bytes @ 0xE0001000) (0020ms, 0346ms total)
T1EA4 000:381 JLINK_Halt()  returns 0x00 (0000ms, 0346ms total)
T1EA4 000:381 JLINK_ReadMemU32(0xE000EDF0, 0x0001 Items, ...) -- CPU_ReadMem(4 bytes @ 0xE000EDF0) - Data: 03 00 03 00  returns 0x01 (0001ms, 0347ms total)
T1EA4 000:382 JLINK_WriteU32(0xE000EDF0, 0xA05F0003) -- CPU_WriteMem(4 bytes @ 0xE000EDF0)  returns 0x00 (0000ms, 0347ms total)
T1EA4 000:382 JLINK_WriteU32(0xE000EDFC, 0x01000000) -- CPU_WriteMem(4 bytes @ 0xE000EDFC)  returns 0x00 (0001ms, 0348ms total)
T1EA4 000:392 JLINK_GetHWStatus(...)  returns 0x00 (0001ms, 0349ms total)
T1EA4 000:402 JLINK_GetNumBPUnits(Type = 0xFFFFFF00)  returns 0x06 (0000ms, 0349ms total)
T1EA4 000:402 JLINK_GetNumBPUnits(Type = 0xF0)  returns 0x2000 (0000ms, 0349ms total)
T1EA4 000:402 JLINK_GetNumWPUnits()  returns 0x04 (0000ms, 0349ms total)
T1EA4 000:409 JLINK_GetSpeed()  returns 0x7D0 (0000ms, 0349ms total)
T1EA4 000:413 JLINK_ReadMemU32(0xE000E004, 0x0001 Items, ...) -- CPU_ReadMem(4 bytes @ 0xE000E004) - Data: 01 00 00 00  returns 0x01 (0000ms, 0349ms total)
T1EA4 000:413 JLINK_ReadMemU32(0xE000E004, 0x0001 Items, ...) -- CPU_ReadMem(4 bytes @ 0xE000E004) - Data: 01 00 00 00  returns 0x01 (0001ms, 0350ms total)
T1EA4 000:414 JLINK_WriteMemEx(0xE0001000, 0x001C Bytes, ..., AccessWidth = 33554436) - Data: 01 00 00 00 00 00 00 00 00 00 00 00 00 00 00 00 ... -- CPU_WriteMem(28 bytes @ 0xE0001000)  returns 0x1C (0001ms, 0351ms total)
T1EA4 000:415 JLINK_Halt()  returns 0x00 (0000ms, 0351ms total)
T1EA4 000:415 JLINK_IsHalted()  returns TRUE (0000ms, 0351ms total)
T1EA4 000:417 JLINK_WriteMem(0x20000000, 0x0164 Bytes, ...) - Data: 00 BE 0A E0 0D 78 2D 06 68 40 08 24 40 00 00 D3 ... -- CPU_WriteMem(356 bytes @ 0x20000000)  returns 0x164 (0005ms, 0356ms total)
T1EA4 000:422 JLINK_WriteReg(R0, 0x08000000)  returns 0x00 (0000ms, 0356ms total)
T1EA4 000:422 JLINK_WriteReg(R1, 0x00B71B00)  returns 0x00 (0000ms, 0356ms total)
T1EA4 000:422 JLINK_WriteReg(R2, 0x00000001)  returns 0x00 (0000ms, 0356ms total)
T1EA4 000:422 JLINK_WriteReg(R3, 0x00000000)  returns 0x00 (0000ms, 0356ms total)
T1EA4 000:422 JLINK_WriteReg(R4, 0x00000000)  returns 0x00 (0000ms, 0356ms total)
T1EA4 000:422 JLINK_WriteReg(R5, 0x00000000)  returns 0x00 (0000ms, 0356ms total)
T1EA4 000:422 JLINK_WriteReg(R6, 0x00000000)  returns 0x00 (0000ms, 0356ms total)
T1EA4 000:422 JLINK_WriteReg(R7, 0x00000000)  returns 0x00 (0000ms, 0356ms total)
T1EA4 000:422 JLINK_WriteReg(R8, 0x00000000)  returns 0x00 (0000ms, 0356ms total)
T1EA4 000:422 JLINK_WriteReg(R9, 0x20000160)  returns 0x00 (0000ms, 0356ms total)
T1EA4 000:422 JLINK_WriteReg(R10, 0x00000000)  returns 0x00 (0000ms, 0356ms total)
T1EA4 000:422 JLINK_WriteReg(R11, 0x00000000)  returns 0x00 (0000ms, 0356ms total)
T1EA4 000:422 JLINK_WriteReg(R12, 0x00000000)  returns 0x00 (0000ms, 0356ms total)
T1EA4 000:422 JLINK_WriteReg(R13 (SP), 0x20001000)  returns 0x00 (0000ms, 0356ms total)
T1EA4 000:422 JLINK_WriteReg(R14, 0x20000001)  returns 0x00 (0000ms, 0356ms total)
T1EA4 000:422 JLINK_WriteReg(R15 (PC), 0x20000038)  returns 0x00 (0000ms, 0356ms total)
T1EA4 000:422 JLINK_WriteReg(XPSR, 0x01000000)  returns 0x00 (0000ms, 0356ms total)
T1EA4 000:422 JLINK_WriteReg(MSP, 0x20001000)  returns 0x00 (0001ms, 0357ms total)
T1EA4 000:423 JLINK_WriteReg(PSP, 0x20001000)  returns 0x00 (0000ms, 0357ms total)
T1EA4 000:423 JLINK_WriteReg(CFBP, 0x00000000)  returns 0x00 (0000ms, 0357ms total)
T1EA4 000:423 JLINK_SetBPEx(Addr = 0x20000000, Type = 0xFFFFFFF2) -- CPU_ReadMem(2 bytes @ 0x20000000)  returns 0x00000001 (0000ms, 0357ms total)
T1EA4 000:423 JLINK_Go() -- CPU_WriteMem(2 bytes @ 0x20000000) -- CPU_WriteMem(4 bytes @ 0xE0002008) -- CPU_WriteMem(4 bytes @ 0xE000200C) -- CPU_WriteMem(4 bytes @ 0xE0002010) -- CPU_WriteMem(4 bytes @ 0xE0002014) -- CPU_WriteMem(4 bytes @ 0xE0002018) -- CPU_WriteMem(4 bytes @ 0xE000201C) -- CPU_WriteMem(4 bytes @ 0xE0001004) (0007ms, 0364ms total)
T1EA4 000:430 JLINK_IsHalted() -- CPU_ReadMem(2 bytes @ 0x20000000)  returns TRUE (0005ms, 0369ms total)
T1EA4 000:435 JLINK_ReadReg(R15 (PC))  returns 0x20000000 (0000ms, 0364ms total)
T1EA4 000:435 JLINK_ClrBPEx(BPHandle = 0x00000001)  returns 0x00 (0000ms, 0364ms total)
T1EA4 000:435 JLINK_ReadReg(R0)  returns 0x00000000 (0000ms, 0364ms total)
T1EA4 000:436 JLINK_WriteReg(R0, 0x08000000)  returns 0x00 (0000ms, 0364ms total)
T1EA4 000:436 JLINK_WriteReg(R1, 0x00000800)  returns 0x00 (0000ms, 0364ms total)
T1EA4 000:436 JLINK_WriteReg(R2, 0x000000FF)  returns 0x00 (0000ms, 0364ms total)
T1EA4 000:436 JLINK_WriteReg(R3, 0x00000000)  returns 0x00 (0000ms, 0364ms total)
T1EA4 000:436 JLINK_WriteReg(R4, 0x00000000)  returns 0x00 (0000ms, 0364ms total)
T1EA4 000:436 JLINK_WriteReg(R5, 0x00000000)  returns 0x00 (0000ms, 0364ms total)
T1EA4 000:436 JLINK_WriteReg(R6, 0x00000000)  returns 0x00 (0000ms, 0364ms total)
T1EA4 000:436 JLINK_WriteReg(R7, 0x00000000)  returns 0x00 (0000ms, 0364ms total)
T1EA4 000:436 JLINK_WriteReg(R8, 0x00000000)  returns 0x00 (0000ms, 0364ms total)
T1EA4 000:436 JLINK_WriteReg(R9, 0x20000160)  returns 0x00 (0000ms, 0364ms total)
T1EA4 000:436 JLINK_WriteReg(R10, 0x00000000)  returns 0x00 (0000ms, 0364ms total)
T1EA4 000:436 JLINK_WriteReg(R11, 0x00000000)  returns 0x00 (0000ms, 0364ms total)
T1EA4 000:436 JLINK_WriteReg(R12, 0x00000000)  returns 0x00 (0000ms, 0364ms total)
T1EA4 000:436 JLINK_WriteReg(R13 (SP), 0x20001000)  returns 0x00 (0000ms, 0364ms total)
T1EA4 000:436 JLINK_WriteReg(R14, 0x20000001)  returns 0x00 (0000ms, 0364ms total)
T1EA4 000:436 JLINK_WriteReg(R15 (PC), 0x20000020)  returns 0x00 (0000ms, 0364ms total)
T1EA4 000:436 JLINK_WriteReg(XPSR, 0x01000000)  returns 0x00 (0000ms, 0364ms total)
T1EA4 000:436 JLINK_WriteReg(MSP, 0x20001000)  returns 0x00 (0000ms, 0364ms total)
T1EA4 000:436 JLINK_WriteReg(PSP, 0x20001000)  returns 0x00 (0000ms, 0364ms total)
T1EA4 000:436 JLINK_WriteReg(CFBP, 0x00000000)  returns 0x00 (0000ms, 0364ms total)
T1EA4 000:436 JLINK_SetBPEx(Addr = 0x20000000, Type = 0xFFFFFFF2)  returns 0x00000002 (0000ms, 0364ms total)
T1EA4 000:436 JLINK_Go() (0002ms, 0366ms total)
T1EA4 000:438 JLINK_IsHalted()  returns FALSE (0001ms, 0367ms total)
T1EA4 000:485 JLINK_IsHalted() -- CPU_ReadMem(2 bytes @ 0x20000000)  returns TRUE (0005ms, 0371ms total)
T1EA4 000:490 JLINK_ReadReg(R15 (PC))  returns 0x20000000 (0000ms, 0366ms total)
T1EA4 000:490 JLINK_ClrBPEx(BPHandle = 0x00000002)  returns 0x00 (0000ms, 0366ms total)
T1EA4 000:490 JLINK_ReadReg(R0)  returns 0x00000000 (0000ms, 0366ms total)
T1EA4 000:490 JLINK_WriteReg(R0, 0x08000800)  returns 0x00 (0000ms, 0366ms total)
T1EA4 000:490 JLINK_WriteReg(R1, 0x00000800)  returns 0x00 (0000ms, 0366ms total)
T1EA4 000:490 JLINK_WriteReg(R2, 0x000000FF)  returns 0x00 (0000ms, 0366ms total)
T1EA4 000:490 JLINK_WriteReg(R3, 0x00000000)  returns 0x00 (0000ms, 0366ms total)
T1EA4 000:491 JLINK_WriteReg(R4, 0x00000000)  returns 0x00 (0000ms, 0367ms total)
T1EA4 000:491 JLINK_WriteReg(R5, 0x00000000)  returns 0x00 (0000ms, 0367ms total)
T1EA4 000:491 JLINK_WriteReg(R6, 0x00000000)  returns 0x00 (0000ms, 0367ms total)
T1EA4 000:491 JLINK_WriteReg(R7, 0x00000000)  returns 0x00 (0000ms, 0367ms total)
T1EA4 000:491 JLINK_WriteReg(R8, 0x00000000)  returns 0x00 (0000ms, 0367ms total)
T1EA4 000:491 JLINK_WriteReg(R9, 0x20000160)  returns 0x00 (0000ms, 0367ms total)
T1EA4 000:491 JLINK_WriteReg(R10, 0x00000000)  returns 0x00 (0000ms, 0367ms total)
T1EA4 000:491 JLINK_WriteReg(R11, 0x00000000)  returns 0x00 (0000ms, 0367ms total)
T1EA4 000:491 JLINK_WriteReg(R12, 0x00000000)  returns 0x00 (0000ms, 0367ms total)
T1EA4 000:491 JLINK_WriteReg(R13 (SP), 0x20001000)  returns 0x00 (0000ms, 0367ms total)
T1EA4 000:491 JLINK_WriteReg(R14, 0x20000001)  returns 0x00 (0000ms, 0367ms total)
T1EA4 000:491 JLINK_WriteReg(R15 (PC), 0x20000020)  returns 0x00 (0000ms, 0367ms total)
T1EA4 000:491 JLINK_WriteReg(XPSR, 0x01000000)  returns 0x00 (0000ms, 0367ms total)
T1EA4 000:491 JLINK_WriteReg(MSP, 0x20001000)  returns 0x00 (0000ms, 0367ms total)
T1EA4 000:491 JLINK_WriteReg(PSP, 0x20001000)  returns 0x00 (0000ms, 0367ms total)
T1EA4 000:491 JLINK_WriteReg(CFBP, 0x00000000)  returns 0x00 (0000ms, 0367ms total)
T1EA4 000:491 JLINK_SetBPEx(Addr = 0x20000000, Type = 0xFFFFFFF2)  returns 0x00000003 (0000ms, 0367ms total)
T1EA4 000:491 JLINK_Go() (0002ms, 0369ms total)
T1EA4 000:493 JLINK_IsHalted()  returns FALSE (0001ms, 0370ms total)
T1EA4 000:496 JLINK_IsHalted()  returns FALSE (0000ms, 0369ms total)
T1EA4 000:498 JLINK_IsHalted() -- CPU_ReadMem(2 bytes @ 0x20000000)  returns TRUE (0005ms, 0374ms total)
T1EA4 000:503 JLINK_ReadReg(R15 (PC))  returns 0x20000000 (0000ms, 0369ms total)
T1EA4 000:503 JLINK_ClrBPEx(BPHandle = 0x00000003)  returns 0x00 (0000ms, 0369ms total)
T1EA4 000:503 JLINK_ReadReg(R0)  returns 0x00000000 (0000ms, 0369ms total)
T1EA4 000:504 JLINK_WriteReg(R0, 0x08001000)  returns 0x00 (0000ms, 0369ms total)
T1EA4 000:504 JLINK_WriteReg(R1, 0x00000800)  returns 0x00 (0000ms, 0369ms total)
T1EA4 000:504 JLINK_WriteReg(R2, 0x000000FF)  returns 0x00 (0000ms, 0369ms total)
T1EA4 000:504 JLINK_WriteReg(R3, 0x00000000)  returns 0x00 (0000ms, 0369ms total)
T1EA4 000:504 JLINK_WriteReg(R4, 0x00000000)  returns 0x00 (0000ms, 0369ms total)
T1EA4 000:504 JLINK_WriteReg(R5, 0x00000000)  returns 0x00 (0000ms, 0369ms total)
T1EA4 000:504 JLINK_WriteReg(R6, 0x00000000)  returns 0x00 (0000ms, 0369ms total)
T1EA4 000:504 JLINK_WriteReg(R7, 0x00000000)  returns 0x00 (0000ms, 0369ms total)
T1EA4 000:504 JLINK_WriteReg(R8, 0x00000000)  returns 0x00 (0000ms, 0369ms total)
T1EA4 000:504 JLINK_WriteReg(R9, 0x20000160)  returns 0x00 (0000ms, 0369ms total)
T1EA4 000:504 JLINK_WriteReg(R10, 0x00000000)  returns 0x00 (0000ms, 0369ms total)
T1EA4 000:504 JLINK_WriteReg(R11, 0x00000000)  returns 0x00 (0000ms, 0369ms total)
T1EA4 000:504 JLINK_WriteReg(R12, 0x00000000)  returns 0x00 (0000ms, 0369ms total)
T1EA4 000:504 JLINK_WriteReg(R13 (SP), 0x20001000)  returns 0x00 (0000ms, 0369ms total)
T1EA4 000:504 JLINK_WriteReg(R14, 0x20000001)  returns 0x00 (0000ms, 0369ms total)
T1EA4 000:504 JLINK_WriteReg(R15 (PC), 0x20000020)  returns 0x00 (0000ms, 0369ms total)
T1EA4 000:504 JLINK_WriteReg(XPSR, 0x01000000)  returns 0x00 (0000ms, 0369ms total)
T1EA4 000:504 JLINK_WriteReg(MSP, 0x20001000)  returns 0x00 (0000ms, 0369ms total)
T1EA4 000:504 JLINK_WriteReg(PSP, 0x20001000)  returns 0x00 (0000ms, 0369ms total)
T1EA4 000:504 JLINK_WriteReg(CFBP, 0x00000000)  returns 0x00 (0000ms, 0369ms total)
T1EA4 000:504 JLINK_SetBPEx(Addr = 0x20000000, Type = 0xFFFFFFF2)  returns 0x00000004 (0000ms, 0369ms total)
T1EA4 000:504 JLINK_Go() (0003ms, 0372ms total)
T1EA4 000:507 JLINK_IsHalted()  returns FALSE (0000ms, 0372ms total)
T1EA4 000:509 JLINK_IsHalted()  returns FALSE (0000ms, 0372ms total)
T1EA4 000:511 JLINK_IsHalted() -- CPU_ReadMem(2 bytes @ 0x20000000)  returns TRUE (0005ms, 0377ms total)
T1EA4 000:516 JLINK_ReadReg(R15 (PC))  returns 0x20000000 (0000ms, 0372ms total)
T1EA4 000:516 JLINK_ClrBPEx(BPHandle = 0x00000004)  returns 0x00 (0000ms, 0372ms total)
T1EA4 000:516 JLINK_ReadReg(R0)  returns 0x00000000 (0000ms, 0372ms total)
T1EA4 000:517 JLINK_WriteReg(R0, 0x08001800)  returns 0x00 (0000ms, 0372ms total)
T1EA4 000:517 JLINK_WriteReg(R1, 0x00000800)  returns 0x00 (0000ms, 0372ms total)
T1EA4 000:517 JLINK_WriteReg(R2, 0x000000FF)  returns 0x00 (0000ms, 0372ms total)
T1EA4 000:517 JLINK_WriteReg(R3, 0x00000000)  returns 0x00 (0000ms, 0372ms total)
T1EA4 000:517 JLINK_WriteReg(R4, 0x00000000)  returns 0x00 (0000ms, 0372ms total)
T1EA4 000:517 JLINK_WriteReg(R5, 0x00000000)  returns 0x00 (0000ms, 0372ms total)
T1EA4 000:517 JLINK_WriteReg(R6, 0x00000000)  returns 0x00 (0000ms, 0372ms total)
T1EA4 000:517 JLINK_WriteReg(R7, 0x00000000)  returns 0x00 (0000ms, 0372ms total)
T1EA4 000:517 JLINK_WriteReg(R8, 0x00000000)  returns 0x00 (0000ms, 0372ms total)
T1EA4 000:517 JLINK_WriteReg(R9, 0x20000160)  returns 0x00 (0000ms, 0372ms total)
T1EA4 000:517 JLINK_WriteReg(R10, 0x00000000)  returns 0x00 (0000ms, 0372ms total)
T1EA4 000:517 JLINK_WriteReg(R11, 0x00000000)  returns 0x00 (0000ms, 0372ms total)
T1EA4 000:517 JLINK_WriteReg(R12, 0x00000000)  returns 0x00 (0000ms, 0372ms total)
T1EA4 000:517 JLINK_WriteReg(R13 (SP), 0x20001000)  returns 0x00 (0000ms, 0372ms total)
T1EA4 000:517 JLINK_WriteReg(R14, 0x20000001)  returns 0x00 (0000ms, 0372ms total)
T1EA4 000:517 JLINK_WriteReg(R15 (PC), 0x20000020)  returns 0x00 (0000ms, 0372ms total)
T1EA4 000:517 JLINK_WriteReg(XPSR, 0x01000000)  returns 0x00 (0000ms, 0372ms total)
T1EA4 000:517 JLINK_WriteReg(MSP, 0x20001000)  returns 0x00 (0000ms, 0372ms total)
T1EA4 000:517 JLINK_WriteReg(PSP, 0x20001000)  returns 0x00 (0000ms, 0372ms total)
T1EA4 000:517 JLINK_WriteReg(CFBP, 0x00000000)  returns 0x00 (0000ms, 0372ms total)
T1EA4 000:517 JLINK_SetBPEx(Addr = 0x20000000, Type = 0xFFFFFFF2)  returns 0x00000005 (0000ms, 0372ms total)
T1EA4 000:517 JLINK_Go() (0002ms, 0374ms total)
T1EA4 000:519 JLINK_IsHalted()  returns FALSE (0001ms, 0375ms total)
T1EA4 000:524 JLINK_IsHalted() -- CPU_ReadMem(2 bytes @ 0x20000000)  returns TRUE (0005ms, 0379ms total)
T1EA4 000:529 JLINK_ReadReg(R15 (PC))  returns 0x20000000 (0000ms, 0374ms total)
T1EA4 000:529 JLINK_ClrBPEx(BPHandle = 0x00000005)  returns 0x00 (0000ms, 0374ms total)
T1EA4 000:529 JLINK_ReadReg(R0)  returns 0x00000000 (0000ms, 0374ms total)
T1EA4 000:529 JLINK_WriteReg(R0, 0x08002000)  returns 0x00 (0000ms, 0374ms total)
T1EA4 000:529 JLINK_WriteReg(R1, 0x00000800)  returns 0x00 (0000ms, 0374ms total)
T1EA4 000:529 JLINK_WriteReg(R2, 0x000000FF)  returns 0x00 (0001ms, 0375ms total)
T1EA4 000:530 JLINK_WriteReg(R3, 0x00000000)  returns 0x00 (0000ms, 0375ms total)
T1EA4 000:530 JLINK_WriteReg(R4, 0x00000000)  returns 0x00 (0000ms, 0375ms total)
T1EA4 000:530 JLINK_WriteReg(R5, 0x00000000)  returns 0x00 (0000ms, 0375ms total)
T1EA4 000:530 JLINK_WriteReg(R6, 0x00000000)  returns 0x00 (0000ms, 0375ms total)
T1EA4 000:530 JLINK_WriteReg(R7, 0x00000000)  returns 0x00 (0000ms, 0375ms total)
T1EA4 000:530 JLINK_WriteReg(R8, 0x00000000)  returns 0x00 (0000ms, 0375ms total)
T1EA4 000:530 JLINK_WriteReg(R9, 0x20000160)  returns 0x00 (0000ms, 0375ms total)
T1EA4 000:530 JLINK_WriteReg(R10, 0x00000000)  returns 0x00 (0000ms, 0375ms total)
T1EA4 000:530 JLINK_WriteReg(R11, 0x00000000)  returns 0x00 (0000ms, 0375ms total)
T1EA4 000:530 JLINK_WriteReg(R12, 0x00000000)  returns 0x00 (0000ms, 0375ms total)
T1EA4 000:530 JLINK_WriteReg(R13 (SP), 0x20001000)  returns 0x00 (0000ms, 0375ms total)
T1EA4 000:530 JLINK_WriteReg(R14, 0x20000001)  returns 0x00 (0000ms, 0375ms total)
T1EA4 000:530 JLINK_WriteReg(R15 (PC), 0x20000020)  returns 0x00 (0000ms, 0375ms total)
T1EA4 000:530 JLINK_WriteReg(XPSR, 0x01000000)  returns 0x00 (0000ms, 0375ms total)
T1EA4 000:530 JLINK_WriteReg(MSP, 0x20001000)  returns 0x00 (0000ms, 0375ms total)
T1EA4 000:530 JLINK_WriteReg(PSP, 0x20001000)  returns 0x00 (0000ms, 0375ms total)
T1EA4 000:530 JLINK_WriteReg(CFBP, 0x00000000)  returns 0x00 (0000ms, 0375ms total)
T1EA4 000:530 JLINK_SetBPEx(Addr = 0x20000000, Type = 0xFFFFFFF2)  returns 0x00000006 (0000ms, 0375ms total)
T1EA4 000:530 JLINK_Go() (0002ms, 0377ms total)
T1EA4 000:532 JLINK_IsHalted()  returns FALSE (0001ms, 0378ms total)
T1EA4 000:536 JLINK_IsHalted() -- CPU_ReadMem(2 bytes @ 0x20000000)  returns TRUE (0005ms, 0382ms total)
T1EA4 000:541 JLINK_ReadReg(R15 (PC))  returns 0x20000000 (0000ms, 0377ms total)
T1EA4 000:541 JLINK_ClrBPEx(BPHandle = 0x00000006)  returns 0x00 (0000ms, 0377ms total)
T1EA4 000:541 JLINK_ReadReg(R0)  returns 0x00000000 (0000ms, 0377ms total)
T1EA4 000:541 JLINK_WriteReg(R0, 0x08002800)  returns 0x00 (0000ms, 0377ms total)
T1EA4 000:541 JLINK_WriteReg(R1, 0x00000800)  returns 0x00 (0000ms, 0377ms total)
T1EA4 000:541 JLINK_WriteReg(R2, 0x000000FF)  returns 0x00 (0001ms, 0378ms total)
T1EA4 000:542 JLINK_WriteReg(R3, 0x00000000)  returns 0x00 (0000ms, 0378ms total)
T1EA4 000:542 JLINK_WriteReg(R4, 0x00000000)  returns 0x00 (0000ms, 0378ms total)
T1EA4 000:542 JLINK_WriteReg(R5, 0x00000000)  returns 0x00 (0000ms, 0378ms total)
T1EA4 000:542 JLINK_WriteReg(R6, 0x00000000)  returns 0x00 (0000ms, 0378ms total)
T1EA4 000:542 JLINK_WriteReg(R7, 0x00000000)  returns 0x00 (0000ms, 0378ms total)
T1EA4 000:542 JLINK_WriteReg(R8, 0x00000000)  returns 0x00 (0000ms, 0378ms total)
T1EA4 000:542 JLINK_WriteReg(R9, 0x20000160)  returns 0x00 (0000ms, 0378ms total)
T1EA4 000:542 JLINK_WriteReg(R10, 0x00000000)  returns 0x00 (0000ms, 0378ms total)
T1EA4 000:542 JLINK_WriteReg(R11, 0x00000000)  returns 0x00 (0000ms, 0378ms total)
T1EA4 000:542 JLINK_WriteReg(R12, 0x00000000)  returns 0x00 (0000ms, 0378ms total)
T1EA4 000:542 JLINK_WriteReg(R13 (SP), 0x20001000)  returns 0x00 (0000ms, 0378ms total)
T1EA4 000:542 JLINK_WriteReg(R14, 0x20000001)  returns 0x00 (0000ms, 0378ms total)
T1EA4 000:542 JLINK_WriteReg(R15 (PC), 0x20000020)  returns 0x00 (0000ms, 0378ms total)
T1EA4 000:542 JLINK_WriteReg(XPSR, 0x01000000)  returns 0x00 (0000ms, 0378ms total)
T1EA4 000:542 JLINK_WriteReg(MSP, 0x20001000)  returns 0x00 (0000ms, 0378ms total)
T1EA4 000:542 JLINK_WriteReg(PSP, 0x20001000)  returns 0x00 (0000ms, 0378ms total)
T1EA4 000:542 JLINK_WriteReg(CFBP, 0x00000000)  returns 0x00 (0000ms, 0378ms total)
T1EA4 000:542 JLINK_SetBPEx(Addr = 0x20000000, Type = 0xFFFFFFF2)  returns 0x00000007 (0000ms, 0378ms total)
T1EA4 000:542 JLINK_Go() (0002ms, 0380ms total)
T1EA4 000:544 JLINK_IsHalted()  returns FALSE (0001ms, 0381ms total)
T1EA4 000:548 JLINK_IsHalted() -- CPU_ReadMem(2 bytes @ 0x20000000)  returns TRUE (0005ms, 0385ms total)
T1EA4 000:553 JLINK_ReadReg(R15 (PC))  returns 0x20000000 (0000ms, 0380ms total)
T1EA4 000:553 JLINK_ClrBPEx(BPHandle = 0x00000007)  returns 0x00 (0000ms, 0380ms total)
T1EA4 000:553 JLINK_ReadReg(R0)  returns 0x00000000 (0000ms, 0380ms total)
T1EA4 000:553 JLINK_WriteReg(R0, 0x00000001)  returns 0x00 (0000ms, 0380ms total)
T1EA4 000:553 JLINK_WriteReg(R1, 0x00000800)  returns 0x00 (0000ms, 0380ms total)
T1EA4 000:553 JLINK_WriteReg(R2, 0x000000FF)  returns 0x00 (0000ms, 0380ms total)
T1EA4 000:553 JLINK_WriteReg(R3, 0x00000000)  returns 0x00 (0000ms, 0380ms total)
T1EA4 000:553 JLINK_WriteReg(R4, 0x00000000)  returns 0x00 (0000ms, 0380ms total)
T1EA4 000:553 JLINK_WriteReg(R5, 0x00000000)  returns 0x00 (0000ms, 0380ms total)
T1EA4 000:553 JLINK_WriteReg(R6, 0x00000000)  returns 0x00 (0000ms, 0380ms total)
T1EA4 000:553 JLINK_WriteReg(R7, 0x00000000)  returns 0x00 (0000ms, 0380ms total)
T1EA4 000:553 JLINK_WriteReg(R8, 0x00000000)  returns 0x00 (0000ms, 0380ms total)
T1EA4 000:553 JLINK_WriteReg(R9, 0x20000160)  returns 0x00 (0000ms, 0380ms total)
T1EA4 000:553 JLINK_WriteReg(R10, 0x00000000)  returns 0x00 (0000ms, 0380ms total)
T1EA4 000:553 JLINK_WriteReg(R11, 0x00000000)  returns 0x00 (0000ms, 0380ms total)
T1EA4 000:553 JLINK_WriteReg(R12, 0x00000000)  returns 0x00 (0000ms, 0380ms total)
T1EA4 000:553 JLINK_WriteReg(R13 (SP), 0x20001000)  returns 0x00 (0000ms, 0380ms total)
T1EA4 000:553 JLINK_WriteReg(R14, 0x20000001)  returns 0x00 (0000ms, 0380ms total)
T1EA4 000:553 JLINK_WriteReg(R15 (PC), 0x2000006A)  returns 0x00 (0000ms, 0380ms total)
T1EA4 000:553 JLINK_WriteReg(XPSR, 0x01000000)  returns 0x00 (0000ms, 0380ms total)
T1EA4 000:553 JLINK_WriteReg(MSP, 0x20001000)  returns 0x00 (0000ms, 0380ms total)
T1EA4 000:553 JLINK_WriteReg(PSP, 0x20001000)  returns 0x00 (0000ms, 0380ms total)
T1EA4 000:553 JLINK_WriteReg(CFBP, 0x00000000)  returns 0x00 (0001ms, 0381ms total)
T1EA4 000:554 JLINK_SetBPEx(Addr = 0x20000000, Type = 0xFFFFFFF2)  returns 0x00000008 (0000ms, 0381ms total)
T1EA4 000:554 JLINK_Go() (0002ms, 0383ms total)
T1EA4 000:556 JLINK_IsHalted() -- CPU_ReadMem(2 bytes @ 0x20000000)  returns TRUE (0005ms, 0388ms total)
T1EA4 000:561 JLINK_ReadReg(R15 (PC))  returns 0x20000000 (0000ms, 0383ms total)
T1EA4 000:561 JLINK_ClrBPEx(BPHandle = 0x00000008)  returns 0x00 (0000ms, 0383ms total)
T1EA4 000:561 JLINK_ReadReg(R0)  returns 0x00000000 (0000ms, 0383ms total)
T1EA4 000:618 JLINK_WriteMem(0x20000000, 0x0164 Bytes, ...) - Data: 00 BE 0A E0 0D 78 2D 06 68 40 08 24 40 00 00 D3 ... -- CPU_WriteMem(356 bytes @ 0x20000000)  returns 0x164 (0004ms, 0387ms total)
T1EA4 000:622 JLINK_WriteReg(R0, 0x08000000)  returns 0x00 (0000ms, 0387ms total)
T1EA4 000:622 JLINK_WriteReg(R1, 0x00B71B00)  returns 0x00 (0000ms, 0387ms total)
T1EA4 000:622 JLINK_WriteReg(R2, 0x00000002)  returns 0x00 (0000ms, 0387ms total)
T1EA4 000:622 JLINK_WriteReg(R3, 0x00000000)  returns 0x00 (0000ms, 0387ms total)
T1EA4 000:622 JLINK_WriteReg(R4, 0x00000000)  returns 0x00 (0000ms, 0387ms total)
T1EA4 000:622 JLINK_WriteReg(R5, 0x00000000)  returns 0x00 (0000ms, 0387ms total)
T1EA4 000:622 JLINK_WriteReg(R6, 0x00000000)  returns 0x00 (0000ms, 0387ms total)
T1EA4 000:622 JLINK_WriteReg(R7, 0x00000000)  returns 0x00 (0000ms, 0387ms total)
T1EA4 000:622 JLINK_WriteReg(R8, 0x00000000)  returns 0x00 (0000ms, 0387ms total)
T1EA4 000:622 JLINK_WriteReg(R9, 0x20000160)  returns 0x00 (0000ms, 0387ms total)
T1EA4 000:622 JLINK_WriteReg(R10, 0x00000000)  returns 0x00 (0000ms, 0387ms total)
T1EA4 000:622 JLINK_WriteReg(R11, 0x00000000)  returns 0x00 (0000ms, 0387ms total)
T1EA4 000:622 JLINK_WriteReg(R12, 0x00000000)  returns 0x00 (0000ms, 0387ms total)
T1EA4 000:622 JLINK_WriteReg(R13 (SP), 0x20001000)  returns 0x00 (0000ms, 0387ms total)
T1EA4 000:622 JLINK_WriteReg(R14, 0x20000001)  returns 0x00 (0000ms, 0387ms total)
T1EA4 000:622 JLINK_WriteReg(R15 (PC), 0x20000038)  returns 0x00 (0000ms, 0387ms total)
T1EA4 000:622 JLINK_WriteReg(XPSR, 0x01000000)  returns 0x00 (0000ms, 0387ms total)
T1EA4 000:622 JLINK_WriteReg(MSP, 0x20001000)  returns 0x00 (0000ms, 0387ms total)
T1EA4 000:622 JLINK_WriteReg(PSP, 0x20001000)  returns 0x00 (0000ms, 0387ms total)
T1EA4 000:622 JLINK_WriteReg(CFBP, 0x00000000)  returns 0x00 (0000ms, 0387ms total)
T1EA4 000:622 JLINK_SetBPEx(Addr = 0x20000000, Type = 0xFFFFFFF2) -- CPU_ReadMem(2 bytes @ 0x20000000)  returns 0x00000009 (0001ms, 0388ms total)
T1EA4 000:623 JLINK_Go() -- CPU_WriteMem(2 bytes @ 0x20000000) (0003ms, 0391ms total)
T1EA4 000:626 JLINK_IsHalted() -- CPU_ReadMem(2 bytes @ 0x20000000)  returns TRUE (0005ms, 0396ms total)
T1EA4 000:631 JLINK_ReadReg(R15 (PC))  returns 0x20000000 (0000ms, 0391ms total)
T1EA4 000:631 JLINK_ClrBPEx(BPHandle = 0x00000009)  returns 0x00 (0000ms, 0391ms total)
T1EA4 000:631 JLINK_ReadReg(R0)  returns 0x00000000 (0000ms, 0391ms total)
T1EA4 000:631 JLINK_WriteMem(0x20000164, 0x029C Bytes, ...) - Data: 88 07 00 20 ED 0B 00 08 ED 01 00 08 EF 01 00 08 ... -- CPU_WriteMem(668 bytes @ 0x20000164)  returns 0x29C (0007ms, 0398ms total)
T1EA4 000:638 JLINK_WriteMem(0x20000400, 0x0164 Bytes, ...) - Data: 08 46 00 68 40 F0 80 70 08 60 00 BF 45 48 00 68 ... -- CPU_WriteMem(356 bytes @ 0x20000400)  returns 0x164 (0005ms, 0403ms total)
T1EA4 000:643 JLINK_WriteReg(R0, 0x08000000)  returns 0x00 (0000ms, 0403ms total)
T1EA4 000:643 JLINK_WriteReg(R1, 0x00000400)  returns 0x00 (0000ms, 0403ms total)
T1EA4 000:643 JLINK_WriteReg(R2, 0x20000164)  returns 0x00 (0000ms, 0403ms total)
T1EA4 000:643 JLINK_WriteReg(R3, 0x00000000)  returns 0x00 (0000ms, 0403ms total)
T1EA4 000:643 JLINK_WriteReg(R4, 0x00000000)  returns 0x00 (0000ms, 0403ms total)
T1EA4 000:643 JLINK_WriteReg(R5, 0x00000000)  returns 0x00 (0000ms, 0403ms total)
T1EA4 000:643 JLINK_WriteReg(R6, 0x00000000)  returns 0x00 (0000ms, 0403ms total)
T1EA4 000:643 JLINK_WriteReg(R7, 0x00000000)  returns 0x00 (0000ms, 0403ms total)
T1EA4 000:643 JLINK_WriteReg(R8, 0x00000000)  returns 0x00 (0000ms, 0403ms total)
T1EA4 000:643 JLINK_WriteReg(R9, 0x20000160)  returns 0x00 (0000ms, 0403ms total)
T1EA4 000:643 JLINK_WriteReg(R10, 0x00000000)  returns 0x00 (0000ms, 0403ms total)
T1EA4 000:643 JLINK_WriteReg(R11, 0x00000000)  returns 0x00 (0000ms, 0403ms total)
T1EA4 000:643 JLINK_WriteReg(R12, 0x00000000)  returns 0x00 (0000ms, 0403ms total)
T1EA4 000:643 JLINK_WriteReg(R13 (SP), 0x20001000)  returns 0x00 (0000ms, 0403ms total)
T1EA4 000:643 JLINK_WriteReg(R14, 0x20000001)  returns 0x00 (0000ms, 0403ms total)
T1EA4 000:643 JLINK_WriteReg(R15 (PC), 0x200000F4)  returns 0x00 (0000ms, 0403ms total)
T1EA4 000:643 JLINK_WriteReg(XPSR, 0x01000000)  returns 0x00 (0000ms, 0403ms total)
T1EA4 000:643 JLINK_WriteReg(MSP, 0x20001000)  returns 0x00 (0000ms, 0403ms total)
T1EA4 000:643 JLINK_WriteReg(PSP, 0x20001000)  returns 0x00 (0000ms, 0403ms total)
T1EA4 000:643 JLINK_WriteReg(CFBP, 0x00000000)  returns 0x00 (0000ms, 0403ms total)
T1EA4 000:643 JLINK_SetBPEx(Addr = 0x20000000, Type = 0xFFFFFFF2)  returns 0x0000000A (0000ms, 0403ms total)
T1EA4 000:643 JLINK_Go() (0002ms, 0405ms total)
T1EA4 000:645 JLINK_IsHalted()  returns FALSE (0001ms, 0406ms total)
T1EA4 000:651 JLINK_IsHalted()  returns FALSE (0000ms, 0405ms total)
T1EA4 000:653 JLINK_IsHalted()  returns FALSE (0000ms, 0405ms total)
T1EA4 000:655 JLINK_IsHalted()  returns FALSE (0000ms, 0405ms total)
T1EA4 000:657 JLINK_IsHalted()  returns FALSE (0000ms, 0405ms total)
T1EA4 000:659 JLINK_IsHalted()  returns FALSE (0000ms, 0405ms total)
T1EA4 000:661 JLINK_IsHalted()  returns FALSE (0000ms, 0405ms total)
T1EA4 000:663 JLINK_IsHalted()  returns FALSE (0000ms, 0405ms total)
T1EA4 000:666 JLINK_IsHalted()  returns FALSE (0000ms, 0405ms total)
T1EA4 000:668 JLINK_IsHalted()  returns FALSE (0000ms, 0405ms total)
T1EA4 000:670 JLINK_IsHalted()  returns FALSE (0000ms, 0405ms total)
T1EA4 000:672 JLINK_IsHalted()  returns FALSE (0000ms, 0405ms total)
T1EA4 000:674 JLINK_IsHalted()  returns FALSE (0000ms, 0405ms total)
T1EA4 000:676 JLINK_IsHalted()  returns FALSE (0000ms, 0405ms total)
T1EA4 000:678 JLINK_IsHalted() -- CPU_ReadMem(2 bytes @ 0x20000000)  returns TRUE (0005ms, 0410ms total)
T1EA4 000:683 JLINK_ReadReg(R15 (PC))  returns 0x20000000 (0000ms, 0405ms total)
T1EA4 000:683 JLINK_ClrBPEx(BPHandle = 0x0000000A)  returns 0x00 (0000ms, 0405ms total)
T1EA4 000:683 JLINK_ReadReg(R0)  returns 0x00000000 (0000ms, 0405ms total)
T1EA4 000:683 JLINK_WriteMem(0x20000164, 0x029C Bytes, ...) - Data: 10 20 8D F8 03 00 03 20 8D F8 02 00 69 46 C3 48 ... -- CPU_WriteMem(668 bytes @ 0x20000164)  returns 0x29C (0008ms, 0413ms total)
T1EA4 000:691 JLINK_WriteMem(0x20000400, 0x0164 Bytes, ...) - Data: FF F7 84 FF FF F7 0B FF 00 BF 0D E0 70 1E A0 42 ... -- CPU_WriteMem(356 bytes @ 0x20000400)  returns 0x164 (0004ms, 0417ms total)
T1EA4 000:695 JLINK_WriteReg(R0, 0x08000400)  returns 0x00 (0000ms, 0417ms total)
T1EA4 000:695 JLINK_WriteReg(R1, 0x00000400)  returns 0x00 (0000ms, 0417ms total)
T1EA4 000:695 JLINK_WriteReg(R2, 0x20000164)  returns 0x00 (0000ms, 0417ms total)
T1EA4 000:695 JLINK_WriteReg(R3, 0x00000000)  returns 0x00 (0000ms, 0417ms total)
T1EA4 000:695 JLINK_WriteReg(R4, 0x00000000)  returns 0x00 (0000ms, 0417ms total)
T1EA4 000:695 JLINK_WriteReg(R5, 0x00000000)  returns 0x00 (0000ms, 0417ms total)
T1EA4 000:695 JLINK_WriteReg(R6, 0x00000000)  returns 0x00 (0000ms, 0417ms total)
T1EA4 000:695 JLINK_WriteReg(R7, 0x00000000)  returns 0x00 (0000ms, 0417ms total)
T1EA4 000:695 JLINK_WriteReg(R8, 0x00000000)  returns 0x00 (0000ms, 0417ms total)
T1EA4 000:695 JLINK_WriteReg(R9, 0x20000160)  returns 0x00 (0000ms, 0417ms total)
T1EA4 000:695 JLINK_WriteReg(R10, 0x00000000)  returns 0x00 (0000ms, 0417ms total)
T1EA4 000:695 JLINK_WriteReg(R11, 0x00000000)  returns 0x00 (0000ms, 0417ms total)
T1EA4 000:695 JLINK_WriteReg(R12, 0x00000000)  returns 0x00 (0000ms, 0417ms total)
T1EA4 000:695 JLINK_WriteReg(R13 (SP), 0x20001000)  returns 0x00 (0000ms, 0417ms total)
T1EA4 000:695 JLINK_WriteReg(R14, 0x20000001)  returns 0x00 (0000ms, 0417ms total)
T1EA4 000:695 JLINK_WriteReg(R15 (PC), 0x200000F4)  returns 0x00 (0000ms, 0417ms total)
T1EA4 000:695 JLINK_WriteReg(XPSR, 0x01000000)  returns 0x00 (0000ms, 0417ms total)
T1EA4 000:695 JLINK_WriteReg(MSP, 0x20001000)  returns 0x00 (0000ms, 0417ms total)
T1EA4 000:695 JLINK_WriteReg(PSP, 0x20001000)  returns 0x00 (0000ms, 0417ms total)
T1EA4 000:695 JLINK_WriteReg(CFBP, 0x00000000)  returns 0x00 (0000ms, 0417ms total)
T1EA4 000:695 JLINK_SetBPEx(Addr = 0x20000000, Type = 0xFFFFFFF2)  returns 0x0000000B (0000ms, 0417ms total)
T1EA4 000:695 JLINK_Go() (0003ms, 0420ms total)
T1EA4 000:698 JLINK_IsHalted()  returns FALSE (0000ms, 0420ms total)
T1EA4 000:700 JLINK_IsHalted()  returns FALSE (0000ms, 0420ms total)
T1EA4 000:702 JLINK_IsHalted()  returns FALSE (0000ms, 0420ms total)
T1EA4 000:704 JLINK_IsHalted()  returns FALSE (0000ms, 0420ms total)
T1EA4 000:706 JLINK_IsHalted()  returns FALSE (0000ms, 0420ms total)
T1EA4 000:708 JLINK_IsHalted()  returns FALSE (0000ms, 0420ms total)
T1EA4 000:710 JLINK_IsHalted()  returns FALSE (0000ms, 0420ms total)
T1EA4 000:714 JLINK_IsHalted()  returns FALSE (0000ms, 0420ms total)
T1EA4 000:716 JLINK_IsHalted()  returns FALSE (0000ms, 0420ms total)
T1EA4 000:718 JLINK_IsHalted()  returns FALSE (0000ms, 0420ms total)
T1EA4 000:720 JLINK_IsHalted()  returns FALSE (0000ms, 0420ms total)
T1EA4 000:722 JLINK_IsHalted()  returns FALSE (0000ms, 0420ms total)
T1EA4 000:724 JLINK_IsHalted()  returns FALSE (0000ms, 0420ms total)
T1EA4 000:726 JLINK_IsHalted()  returns FALSE (0000ms, 0420ms total)
T1EA4 000:728 JLINK_IsHalted()  returns FALSE (0000ms, 0420ms total)
T1EA4 000:730 JLINK_IsHalted() -- CPU_ReadMem(2 bytes @ 0x20000000)  returns TRUE (0005ms, 0425ms total)
T1EA4 000:735 JLINK_ReadReg(R15 (PC))  returns 0x20000000 (0000ms, 0420ms total)
T1EA4 000:735 JLINK_ClrBPEx(BPHandle = 0x0000000B)  returns 0x00 (0000ms, 0420ms total)
T1EA4 000:735 JLINK_ReadReg(R0)  returns 0x00000000 (0000ms, 0420ms total)
T1EA4 000:735 JLINK_WriteMem(0x20000164, 0x029C Bytes, ...) - Data: 33 FF 68 46 FF F7 94 FF 06 46 02 F0 A1 F9 05 46 ... -- CPU_WriteMem(668 bytes @ 0x20000164)  returns 0x29C (0007ms, 0427ms total)
T1EA4 000:742 JLINK_WriteMem(0x20000400, 0x0164 Bytes, ...) - Data: 30 00 00 20 32 00 00 20 3E 00 00 20 3F 00 00 20 ... -- CPU_WriteMem(356 bytes @ 0x20000400)  returns 0x164 (0004ms, 0431ms total)
T1EA4 000:747 JLINK_WriteReg(R0, 0x08000800)  returns 0x00 (0000ms, 0431ms total)
T1EA4 000:747 JLINK_WriteReg(R1, 0x00000400)  returns 0x00 (0000ms, 0431ms total)
T1EA4 000:747 JLINK_WriteReg(R2, 0x20000164)  returns 0x00 (0000ms, 0431ms total)
T1EA4 000:747 JLINK_WriteReg(R3, 0x00000000)  returns 0x00 (0000ms, 0431ms total)
T1EA4 000:747 JLINK_WriteReg(R4, 0x00000000)  returns 0x00 (0000ms, 0431ms total)
T1EA4 000:747 JLINK_WriteReg(R5, 0x00000000)  returns 0x00 (0000ms, 0431ms total)
T1EA4 000:747 JLINK_WriteReg(R6, 0x00000000)  returns 0x00 (0000ms, 0431ms total)
T1EA4 000:747 JLINK_WriteReg(R7, 0x00000000)  returns 0x00 (0000ms, 0431ms total)
T1EA4 000:747 JLINK_WriteReg(R8, 0x00000000)  returns 0x00 (0000ms, 0431ms total)
T1EA4 000:747 JLINK_WriteReg(R9, 0x20000160)  returns 0x00 (0000ms, 0431ms total)
T1EA4 000:747 JLINK_WriteReg(R10, 0x00000000)  returns 0x00 (0000ms, 0431ms total)
T1EA4 000:747 JLINK_WriteReg(R11, 0x00000000)  returns 0x00 (0000ms, 0431ms total)
T1EA4 000:747 JLINK_WriteReg(R12, 0x00000000)  returns 0x00 (0000ms, 0431ms total)
T1EA4 000:747 JLINK_WriteReg(R13 (SP), 0x20001000)  returns 0x00 (0000ms, 0431ms total)
T1EA4 000:747 JLINK_WriteReg(R14, 0x20000001)  returns 0x00 (0000ms, 0431ms total)
T1EA4 000:747 JLINK_WriteReg(R15 (PC), 0x200000F4)  returns 0x00 (0000ms, 0431ms total)
T1EA4 000:747 JLINK_WriteReg(XPSR, 0x01000000)  returns 0x00 (0000ms, 0431ms total)
T1EA4 000:747 JLINK_WriteReg(MSP, 0x20001000)  returns 0x00 (0000ms, 0431ms total)
T1EA4 000:747 JLINK_WriteReg(PSP, 0x20001000)  returns 0x00 (0000ms, 0431ms total)
T1EA4 000:747 JLINK_WriteReg(CFBP, 0x00000000)  returns 0x00 (0000ms, 0431ms total)
T1EA4 000:747 JLINK_SetBPEx(Addr = 0x20000000, Type = 0xFFFFFFF2)  returns 0x0000000C (0000ms, 0431ms total)
T1EA4 000:747 JLINK_Go() (0002ms, 0433ms total)
T1EA4 000:749 JLINK_IsHalted()  returns FALSE (0001ms, 0434ms total)
T1EA4 000:752 JLINK_IsHalted()  returns FALSE (0000ms, 0433ms total)
T1EA4 000:754 JLINK_IsHalted()  returns FALSE (0000ms, 0433ms total)
T1EA4 000:756 JLINK_IsHalted()  returns FALSE (0000ms, 0433ms total)
T1EA4 000:758 JLINK_IsHalted()  returns FALSE (0000ms, 0433ms total)
T1EA4 000:760 JLINK_IsHalted()  returns FALSE (0000ms, 0433ms total)
T1EA4 000:762 JLINK_IsHalted()  returns FALSE (0000ms, 0433ms total)
T1EA4 000:764 JLINK_IsHalted()  returns FALSE (0000ms, 0433ms total)
T1EA4 000:766 JLINK_IsHalted()  returns FALSE (0000ms, 0433ms total)
T1EA4 000:768 JLINK_IsHalted()  returns FALSE (0000ms, 0433ms total)
T1EA4 000:770 JLINK_IsHalted()  returns FALSE (0000ms, 0433ms total)
T1EA4 000:772 JLINK_IsHalted()  returns FALSE (0000ms, 0433ms total)
T1EA4 000:774 JLINK_IsHalted()  returns FALSE (0000ms, 0433ms total)
T1EA4 000:778 JLINK_IsHalted()  returns FALSE (0000ms, 0433ms total)
T1EA4 000:780 JLINK_IsHalted()  returns FALSE (0000ms, 0433ms total)
T1EA4 000:782 JLINK_IsHalted() -- CPU_ReadMem(2 bytes @ 0x20000000)  returns TRUE (0005ms, 0438ms total)
T1EA4 000:787 JLINK_ReadReg(R15 (PC))  returns 0x20000000 (0000ms, 0433ms total)
T1EA4 000:787 JLINK_ClrBPEx(BPHandle = 0x0000000C)  returns 0x00 (0000ms, 0433ms total)
T1EA4 000:787 JLINK_ReadReg(R0)  returns 0x00000000 (0000ms, 0433ms total)
T1EA4 000:788 JLINK_WriteMem(0x20000164, 0x029C Bytes, ...) - Data: FE E7 FE E7 FE E7 FE E7 04 48 05 49 05 4A 06 4B ... -- CPU_WriteMem(668 bytes @ 0x20000164)  returns 0x29C (0007ms, 0440ms total)
T1EA4 000:795 JLINK_WriteMem(0x20000400, 0x0164 Bytes, ...) - Data: 00 46 B6 F1 00 4F 02 D1 36 4E F1 69 01 E0 35 4E ... -- CPU_WriteMem(356 bytes @ 0x20000400)  returns 0x164 (0004ms, 0444ms total)
T1EA4 000:799 JLINK_WriteReg(R0, 0x08000C00)  returns 0x00 (0000ms, 0444ms total)
T1EA4 000:799 JLINK_WriteReg(R1, 0x00000400)  returns 0x00 (0000ms, 0444ms total)
T1EA4 000:799 JLINK_WriteReg(R2, 0x20000164)  returns 0x00 (0000ms, 0444ms total)
T1EA4 000:799 JLINK_WriteReg(R3, 0x00000000)  returns 0x00 (0000ms, 0444ms total)
T1EA4 000:799 JLINK_WriteReg(R4, 0x00000000)  returns 0x00 (0000ms, 0444ms total)
T1EA4 000:799 JLINK_WriteReg(R5, 0x00000000)  returns 0x00 (0000ms, 0444ms total)
T1EA4 000:799 JLINK_WriteReg(R6, 0x00000000)  returns 0x00 (0000ms, 0444ms total)
T1EA4 000:799 JLINK_WriteReg(R7, 0x00000000)  returns 0x00 (0000ms, 0444ms total)
T1EA4 000:799 JLINK_WriteReg(R8, 0x00000000)  returns 0x00 (0001ms, 0445ms total)
T1EA4 000:800 JLINK_WriteReg(R9, 0x20000160)  returns 0x00 (0000ms, 0445ms total)
T1EA4 000:800 JLINK_WriteReg(R10, 0x00000000)  returns 0x00 (0000ms, 0445ms total)
T1EA4 000:800 JLINK_WriteReg(R11, 0x00000000)  returns 0x00 (0000ms, 0445ms total)
T1EA4 000:800 JLINK_WriteReg(R12, 0x00000000)  returns 0x00 (0000ms, 0445ms total)
T1EA4 000:800 JLINK_WriteReg(R13 (SP), 0x20001000)  returns 0x00 (0000ms, 0445ms total)
T1EA4 000:800 JLINK_WriteReg(R14, 0x20000001)  returns 0x00 (0000ms, 0445ms total)
T1EA4 000:800 JLINK_WriteReg(R15 (PC), 0x200000F4)  returns 0x00 (0000ms, 0445ms total)
T1EA4 000:800 JLINK_WriteReg(XPSR, 0x01000000)  returns 0x00 (0000ms, 0445ms total)
T1EA4 000:800 JLINK_WriteReg(MSP, 0x20001000)  returns 0x00 (0000ms, 0445ms total)
T1EA4 000:800 JLINK_WriteReg(PSP, 0x20001000)  returns 0x00 (0000ms, 0445ms total)
T1EA4 000:800 JLINK_WriteReg(CFBP, 0x00000000)  returns 0x00 (0000ms, 0445ms total)
T1EA4 000:800 JLINK_SetBPEx(Addr = 0x20000000, Type = 0xFFFFFFF2)  returns 0x0000000D (0000ms, 0445ms total)
T1EA4 000:800 JLINK_Go() (0002ms, 0447ms total)
T1EA4 000:802 JLINK_IsHalted()  returns FALSE (0001ms, 0448ms total)
T1EA4 000:805 JLINK_IsHalted()  returns FALSE (0000ms, 0447ms total)
T1EA4 000:807 JLINK_IsHalted()  returns FALSE (0000ms, 0447ms total)
T1EA4 000:809 JLINK_IsHalted()  returns FALSE (0000ms, 0447ms total)
T1EA4 000:811 JLINK_IsHalted()  returns FALSE (0000ms, 0447ms total)
T1EA4 000:813 JLINK_IsHalted()  returns FALSE (0000ms, 0447ms total)
T1EA4 000:815 JLINK_IsHalted()  returns FALSE (0000ms, 0447ms total)
T1EA4 000:817 JLINK_IsHalted()  returns FALSE (0000ms, 0447ms total)
T1EA4 000:819 JLINK_IsHalted()  returns FALSE (0000ms, 0447ms total)
T1EA4 000:821 JLINK_IsHalted()  returns FALSE (0000ms, 0447ms total)
T1EA4 000:823 JLINK_IsHalted()  returns FALSE (0000ms, 0447ms total)
T1EA4 000:825 JLINK_IsHalted()  returns FALSE (0000ms, 0447ms total)
T1EA4 000:827 JLINK_IsHalted()  returns FALSE (0000ms, 0447ms total)
T1EA4 000:829 JLINK_IsHalted()  returns FALSE (0000ms, 0447ms total)
T1EA4 000:832 JLINK_IsHalted()  returns FALSE (0000ms, 0447ms total)
T1EA4 000:833 JLINK_IsHalted() -- CPU_ReadMem(2 bytes @ 0x20000000)  returns TRUE (0005ms, 0452ms total)
T1EA4 000:838 JLINK_ReadReg(R15 (PC))  returns 0x20000000 (0000ms, 0447ms total)
T1EA4 000:838 JLINK_ClrBPEx(BPHandle = 0x0000000D)  returns 0x00 (0000ms, 0447ms total)
T1EA4 000:838 JLINK_ReadReg(R0)  returns 0x00000000 (0000ms, 0447ms total)
T1EA4 000:839 JLINK_WriteMem(0x20000164, 0x029C Bytes, ...) - Data: A0 21 C1 4A 11 60 00 E0 00 BF 00 BF 70 47 10 B5 ... -- CPU_WriteMem(668 bytes @ 0x20000164)  returns 0x29C (0007ms, 0454ms total)
T1EA4 000:846 JLINK_WriteMem(0x20000400, 0x0164 Bytes, ...) - Data: D2 68 02 43 19 4B DA 60 04 E0 18 4A D2 68 82 43 ... -- CPU_WriteMem(356 bytes @ 0x20000400)  returns 0x164 (0005ms, 0459ms total)
T1EA4 000:851 JLINK_WriteReg(R0, 0x08001000)  returns 0x00 (0000ms, 0459ms total)
T1EA4 000:851 JLINK_WriteReg(R1, 0x00000400)  returns 0x00 (0000ms, 0459ms total)
T1EA4 000:851 JLINK_WriteReg(R2, 0x20000164)  returns 0x00 (0000ms, 0459ms total)
T1EA4 000:851 JLINK_WriteReg(R3, 0x00000000)  returns 0x00 (0000ms, 0459ms total)
T1EA4 000:851 JLINK_WriteReg(R4, 0x00000000)  returns 0x00 (0000ms, 0459ms total)
T1EA4 000:851 JLINK_WriteReg(R5, 0x00000000)  returns 0x00 (0000ms, 0459ms total)
T1EA4 000:851 JLINK_WriteReg(R6, 0x00000000)  returns 0x00 (0000ms, 0459ms total)
T1EA4 000:851 JLINK_WriteReg(R7, 0x00000000)  returns 0x00 (0000ms, 0459ms total)
T1EA4 000:851 JLINK_WriteReg(R8, 0x00000000)  returns 0x00 (0000ms, 0459ms total)
T1EA4 000:851 JLINK_WriteReg(R9, 0x20000160)  returns 0x00 (0000ms, 0459ms total)
T1EA4 000:851 JLINK_WriteReg(R10, 0x00000000)  returns 0x00 (0000ms, 0459ms total)
T1EA4 000:851 JLINK_WriteReg(R11, 0x00000000)  returns 0x00 (0000ms, 0459ms total)
T1EA4 000:851 JLINK_WriteReg(R12, 0x00000000)  returns 0x00 (0000ms, 0459ms total)
T1EA4 000:851 JLINK_WriteReg(R13 (SP), 0x20001000)  returns 0x00 (0000ms, 0459ms total)
T1EA4 000:851 JLINK_WriteReg(R14, 0x20000001)  returns 0x00 (0000ms, 0459ms total)
T1EA4 000:851 JLINK_WriteReg(R15 (PC), 0x200000F4)  returns 0x00 (0000ms, 0459ms total)
T1EA4 000:851 JLINK_WriteReg(XPSR, 0x01000000)  returns 0x00 (0000ms, 0459ms total)
T1EA4 000:851 JLINK_WriteReg(MSP, 0x20001000)  returns 0x00 (0000ms, 0459ms total)
T1EA4 000:851 JLINK_WriteReg(PSP, 0x20001000)  returns 0x00 (0000ms, 0459ms total)
T1EA4 000:851 JLINK_WriteReg(CFBP, 0x00000000)  returns 0x00 (0000ms, 0459ms total)
T1EA4 000:851 JLINK_SetBPEx(Addr = 0x20000000, Type = 0xFFFFFFF2)  returns 0x0000000E (0000ms, 0459ms total)
T1EA4 000:851 JLINK_Go() (0002ms, 0461ms total)
T1EA4 000:853 JLINK_IsHalted()  returns FALSE (0001ms, 0462ms total)
T1EA4 000:857 JLINK_IsHalted()  returns FALSE (0000ms, 0461ms total)
T1EA4 000:860 JLINK_IsHalted()  returns FALSE (0000ms, 0461ms total)
T1EA4 000:862 JLINK_IsHalted()  returns FALSE (0000ms, 0461ms total)
T1EA4 000:864 JLINK_IsHalted()  returns FALSE (0000ms, 0461ms total)
T1EA4 000:866 JLINK_IsHalted()  returns FALSE (0000ms, 0461ms total)
T1EA4 000:868 JLINK_IsHalted()  returns FALSE (0000ms, 0461ms total)
T1EA4 000:870 JLINK_IsHalted()  returns FALSE (0000ms, 0461ms total)
T1EA4 000:873 JLINK_IsHalted()  returns FALSE (0000ms, 0461ms total)
T1EA4 000:874 JLINK_IsHalted()  returns FALSE (0000ms, 0461ms total)
T1EA4 000:876 JLINK_IsHalted()  returns FALSE (0000ms, 0461ms total)
T1EA4 000:878 JLINK_IsHalted()  returns FALSE (0000ms, 0461ms total)
T1EA4 000:880 JLINK_IsHalted()  returns FALSE (0000ms, 0461ms total)
T1EA4 000:882 JLINK_IsHalted()  returns FALSE (0000ms, 0461ms total)
T1EA4 000:885 JLINK_IsHalted() -- CPU_ReadMem(2 bytes @ 0x20000000)  returns TRUE (0005ms, 0466ms total)
T1EA4 000:890 JLINK_ReadReg(R15 (PC))  returns 0x20000000 (0000ms, 0461ms total)
T1EA4 000:890 JLINK_ClrBPEx(BPHandle = 0x0000000E)  returns 0x00 (0000ms, 0461ms total)
T1EA4 000:890 JLINK_ReadReg(R0)  returns 0x00000000 (0000ms, 0461ms total)
T1EA4 000:891 JLINK_WriteMem(0x20000164, 0x029C Bytes, ...) - Data: 01 A8 FF F7 C2 FE C6 48 87 42 02 D1 DD F8 10 A0 ... -- CPU_WriteMem(668 bytes @ 0x20000164)  returns 0x29C (0007ms, 0468ms total)
T1EA4 000:898 JLINK_WriteMem(0x20000400, 0x0164 Bytes, ...) - Data: 00 72 B2 F5 00 7F 00 D1 00 BF CA 43 02 80 70 47 ... -- CPU_WriteMem(356 bytes @ 0x20000400)  returns 0x164 (0004ms, 0472ms total)
T1EA4 000:902 JLINK_WriteReg(R0, 0x08001400)  returns 0x00 (0000ms, 0472ms total)
T1EA4 000:902 JLINK_WriteReg(R1, 0x00000400)  returns 0x00 (0000ms, 0472ms total)
T1EA4 000:902 JLINK_WriteReg(R2, 0x20000164)  returns 0x00 (0000ms, 0472ms total)
T1EA4 000:902 JLINK_WriteReg(R3, 0x00000000)  returns 0x00 (0000ms, 0472ms total)
T1EA4 000:902 JLINK_WriteReg(R4, 0x00000000)  returns 0x00 (0000ms, 0472ms total)
T1EA4 000:902 JLINK_WriteReg(R5, 0x00000000)  returns 0x00 (0000ms, 0472ms total)
T1EA4 000:902 JLINK_WriteReg(R6, 0x00000000)  returns 0x00 (0000ms, 0472ms total)
T1EA4 000:902 JLINK_WriteReg(R7, 0x00000000)  returns 0x00 (0000ms, 0472ms total)
T1EA4 000:902 JLINK_WriteReg(R8, 0x00000000)  returns 0x00 (0000ms, 0472ms total)
T1EA4 000:902 JLINK_WriteReg(R9, 0x20000160)  returns 0x00 (0000ms, 0472ms total)
T1EA4 000:902 JLINK_WriteReg(R10, 0x00000000)  returns 0x00 (0000ms, 0472ms total)
T1EA4 000:902 JLINK_WriteReg(R11, 0x00000000)  returns 0x00 (0000ms, 0472ms total)
T1EA4 000:902 JLINK_WriteReg(R12, 0x00000000)  returns 0x00 (0000ms, 0472ms total)
T1EA4 000:902 JLINK_WriteReg(R13 (SP), 0x20001000)  returns 0x00 (0001ms, 0473ms total)
T1EA4 000:903 JLINK_WriteReg(R14, 0x20000001)  returns 0x00 (0000ms, 0473ms total)
T1EA4 000:903 JLINK_WriteReg(R15 (PC), 0x200000F4)  returns 0x00 (0000ms, 0473ms total)
T1EA4 000:903 JLINK_WriteReg(XPSR, 0x01000000)  returns 0x00 (0000ms, 0473ms total)
T1EA4 000:903 JLINK_WriteReg(MSP, 0x20001000)  returns 0x00 (0000ms, 0473ms total)
T1EA4 000:903 JLINK_WriteReg(PSP, 0x20001000)  returns 0x00 (0000ms, 0473ms total)
T1EA4 000:903 JLINK_WriteReg(CFBP, 0x00000000)  returns 0x00 (0000ms, 0473ms total)
T1EA4 000:903 JLINK_SetBPEx(Addr = 0x20000000, Type = 0xFFFFFFF2)  returns 0x0000000F (0000ms, 0473ms total)
T1EA4 000:903 JLINK_Go() (0002ms, 0475ms total)
T1EA4 000:905 JLINK_IsHalted()  returns FALSE (0000ms, 0475ms total)
T1EA4 000:908 JLINK_IsHalted()  returns FALSE (0000ms, 0475ms total)
T1EA4 000:911 JLINK_IsHalted()  returns FALSE (0000ms, 0475ms total)
T1EA4 000:913 JLINK_IsHalted()  returns FALSE (0000ms, 0475ms total)
T1EA4 000:914 JLINK_IsHalted()  returns FALSE (0000ms, 0475ms total)
T1EA4 000:916 JLINK_IsHalted()  returns FALSE (0000ms, 0475ms total)
T1EA4 000:918 JLINK_IsHalted()  returns FALSE (0000ms, 0475ms total)
T1EA4 000:920 JLINK_IsHalted()  returns FALSE (0000ms, 0475ms total)
T1EA4 000:922 JLINK_IsHalted()  returns FALSE (0000ms, 0475ms total)
T1EA4 000:924 JLINK_IsHalted()  returns FALSE (0000ms, 0475ms total)
T1EA4 000:926 JLINK_IsHalted()  returns FALSE (0000ms, 0475ms total)
T1EA4 000:928 JLINK_IsHalted()  returns FALSE (0000ms, 0475ms total)
T1EA4 000:930 JLINK_IsHalted()  returns FALSE (0000ms, 0475ms total)
T1EA4 000:932 JLINK_IsHalted()  returns FALSE (0000ms, 0475ms total)
T1EA4 000:934 JLINK_IsHalted()  returns FALSE (0000ms, 0475ms total)
T1EA4 000:936 JLINK_IsHalted() -- CPU_ReadMem(2 bytes @ 0x20000000)  returns TRUE (0005ms, 0480ms total)
T1EA4 000:941 JLINK_ReadReg(R15 (PC))  returns 0x20000000 (0000ms, 0475ms total)
T1EA4 000:941 JLINK_ClrBPEx(BPHandle = 0x0000000F)  returns 0x00 (0000ms, 0475ms total)
T1EA4 000:941 JLINK_ReadReg(R0)  returns 0x00000000 (0000ms, 0475ms total)
T1EA4 000:941 JLINK_WriteMem(0x20000164, 0x029C Bytes, ...) - Data: 0C ED 00 E0 00 E4 00 E0 80 E1 00 E0 80 FF FF 1F ... -- CPU_WriteMem(668 bytes @ 0x20000164)  returns 0x29C (0007ms, 0482ms total)
T1EA4 000:948 JLINK_WriteMem(0x20000400, 0x0164 Bytes, ...) - Data: 11 2D 07 DA 00 F0 74 F9 30 32 62 55 6D 1C 50 EA ... -- CPU_WriteMem(356 bytes @ 0x20000400)  returns 0x164 (0005ms, 0487ms total)
T1EA4 000:953 JLINK_WriteReg(R0, 0x08001800)  returns 0x00 (0000ms, 0487ms total)
